
T12B0 000:838 SEGGER J-Link V4.28 Log File (0001ms, 0834ms total)
T12B0 000:838 DLL Compiled: Jun 16 2011 17:41:05 (0001ms, 0834ms total)
T12B0 000:838 Logging started @ 2012-06-26 14:25 (0001ms, 0834ms total)
T12B0 000:839 JLINK_SetWarnOutHandler(...) (0000ms, 0835ms total)
T12B0 000:839 JLINK_OpenEx(...)
Firmware: J-Link ARM V8 compiled Aug 24 2011 17:23:32
Hardware: V8.00
S/N: 20100214
Feature(s): RDI,FlashDL,FlashBP,JFlash,GDBFull  returns O.K. (0392ms, 0835ms total)
T12B0 001:233 JLINK_SetErrorOutHandler(...) (0001ms, 1227ms total)
T12B0 001:235 JLINK_ExecCommand("ProjectFile = "F:\公司资料\TMA\[jctma-0708-01-r1a].-.fw_stm32f100c8_v1.0beta\rf_module\rvmdk\JLinkSettings.ini"", ...)  returns 0x00 (0001ms, 1228ms total)
T12B0 001:244 JLINK_ExecCommand("DisableConnectionTimeout", ...)  returns 0x00 (0000ms, 1229ms total)
T12B0 001:244 JLINK_TIF_Select(JLINKARM_TIF_SWD)  returns 0x00 (0003ms, 1229ms total)
T12B0 001:247 JLINK_SetSpeed(10000) (0001ms, 1232ms total)
T12B0 001:248 JLINK_GetHardwareVersion()  returns 0x13880 (0000ms, 1233ms total)
T12B0 001:248 JLINK_GetDLLVersion()  returns 42800 (0000ms, 1233ms total)
T12B0 001:248 JLINK_GetFirmwareString(...) (0000ms, 1233ms total)
T12B0 001:263 JLINK_GetDLLVersion()  returns 42800 (0000ms, 1233ms total)
T12B0 001:263 JLINK_GetCompileDateTime() (0000ms, 1233ms total)
T12B0 001:268 JLINK_GetFirmwareString(...) (0000ms, 1233ms total)
T12B0 001:269 JLINK_GetHardwareVersion()  returns 0x13880 (0000ms, 1233ms total)
T12B0 001:276 JLINK_GetId() >0x108 TIF>Found SWD-DP with ID 0x1BA01477 >0x33 TIF> >0x33 TIF> >0x35 TIF> >0x33 TIF> >0x33 TIF> >0x35 TIF> >0x33 TIF> >0x33 TIF> >0x35 TIF> >0x33 TIF> >0x33 TIF> >0x35 TIF> >0x33 TIF> >0x33 TIF> >0x35 TIF> >0x35 TIF> >0x35 TIF> >0x35 TIF> >0x33 TIF> >0x33 TIF> >0x33 TIF> >0x35 TIF> >0x35 TIF> >0x35 TIF> >0x35 TIF> >0x33 TIF> >0x33 TIF> >0x35 TIF> >0x35 TIF> >0x35 TIF> >0x35 TIF> >0x33 TIF> >0x33 TIF> >0x33 TIF> >0x35 TIF> >0x35 TIF> >0x35 TIF> >0x35 TIF> >0x33 TIF>
 >0x33 TIF>TPIU fitted. >0x35 TIF> >0x35 TIF> >0x35 TIF> >0x33 TIF> >0x33 TIF> >0x35 TIF> >0x35 TIF> >0x35 TIF> >0x33 TIF> >0x33 TIF> >0x35 TIF> >0x35 TIF> >0x35 TIF> >0x33 TIF> >0x33 TIF>  FPUnit: 6 code (BP) slots and 2 literal slots >0x35 TIF> >0x35 TIF> >0x35 TIF> >0x33 TIF> >0x33 TIF> >0x35 TIF> >0x35 TIF> >0x35 TIF> >0x33 TIF> >0x33 TIF> >0x35 TIF> >0x35 TIF> >0x35 TIF> >0x33 TIF> >0x33 TIF>Found Cortex-M3 r1p1, Little endian. >0x33 TIF>  returns 0x1BA01477 (0070ms, 1233ms total)
T12B0 001:346 JLINK_GetDebugInfo(0x100) -- Value=0xE00FF003  returns 0x00 (0001ms, 1303ms total)
T12B0 001:348 JLINK_ReadMem (0xE00FFFF0, 0x0010 Bytes, ...) -- CPU is running -- CPU_ReadMem(16 bytes @ 0xE00FFFF0) -- Data:  0D 00 00 00 10 00 00 00 05 00 00 00 B1 00 00 00  returns 0x00 (0001ms, 1304ms total)
T12B0 001:349 JLINK_ReadMem (0xE00FFFD0, 0x0020 Bytes, ...) -- CPU is running -- CPU_ReadMem(32 bytes @ 0xE00FFFD0) -- Data:  00 00 00 00 00 00 00 00 00 00 00 00 00 00 00 00 ...  returns 0x00 (0001ms, 1305ms total)
T12B0 001:350 JLINK_ReadMem (0xE00FF000, 0x0018 Bytes, ...) -- CPU is running -- CPU_ReadMem(24 bytes @ 0xE00FF000) -- Data:  03 F0 F0 FF 03 20 F0 FF 03 30 F0 FF 03 10 F0 FF ...  returns 0x00 (0002ms, 1306ms total)
T12B0 001:352 JLINK_ReadMemU32(0xE000ED00, 0x0001 Items, ...) -- CPU is running -- CPU_ReadMem(4 bytes @ 0xE000ED00) -- Data:  31 C2 1F 41  returns 0x01 (0001ms, 1308ms total)
T12B0 001:353 JLINK_SetResetType(JLINKARM_RESET_TYPE_NORMAL)  returns JLINKARM_RESET_TYPE_NORMAL (0000ms, 1309ms total)
T12B0 001:353 JLINK_Reset() >0x108 TIF>Found SWD-DP with ID 0x1BA01477 >0x33 TIF> >0x33 TIF> >0x35 TIF> >0x33 TIF> >0x35 TIF> >0x33 TIF> >0x33 TIF> >0x35 TIF> >0x33 TIF> >0x33 TIF> >0x35 TIF> >0x33 TIF> >0x33 TIF> >0x35 TIF> >0x33 TIF> >0x33 TIF> >0x35 TIF> >0x35 TIF> >0x35 TIF> >0x35 TIF> >0x33 TIF> >0x33 TIF> >0x33 TIF> >0x35 TIF> >0x35 TIF> >0x35 TIF> >0x35 TIF> >0x33 TIF> >0x33 TIF> >0x35 TIF> >0x35 TIF> >0x35 TIF> >0x33 TIF> >0x33 TIF>TPIU fitted. >0x35 TIF> >0x35 TIF> >0x35 TIF> >0x33 TIF>
 >0x33 TIF> >0x35 TIF> >0x35 TIF> >0x35 TIF> >0x33 TIF> >0x33 TIF> >0x35 TIF> >0x35 TIF> >0x35 TIF> >0x33 TIF> >0x33 TIF>  FPUnit: 6 code (BP) slots and 2 literal slots >0x35 TIF> >0x35 TIF> >0x35 TIF> >0x33 TIF> >0x33 TIF> >0x35 TIF> >0x35 TIF> >0x35 TIF> >0x33 TIF> >0x33 TIF> >0x35 TIF> >0x35 TIF> >0x35 TIF> >0x33 TIF> >0x33 TIF>Found Cortex-M3 r1p1, Little endian. (0081ms, 1309ms total)
T12B0 001:434 JLINK_ExecCommand("Device = STM32F101C8", ...)
                JLINK_ExecCommand("map ram 0x20000000 - 0x200027FF", ...)  returns 0x00 (0000ms, 0000ms total)
                JLINK_AddMirrorAreaEx(Addr = 0x00000000, Size = 0x00000000) (0000ms, 0000ms total)
                returns 0x00 (0001ms, 1390ms total)
T12B0 001:435 JLINK_Halt() >0x108 TIF>Found SWD-DP with ID 0x1BA01477 >0x33 TIF> >0x33 TIF> >0x35 TIF> >0x33 TIF> >0x35 TIF> >0x33 TIF> >0x33 TIF> >0x35 TIF> >0x33 TIF> >0x33 TIF> >0x35 TIF> >0x33 TIF> >0x33 TIF> >0x35 TIF> >0x33 TIF> >0x33 TIF> >0x35 TIF> >0x35 TIF> >0x35 TIF> >0x35 TIF> >0x33 TIF> >0x33 TIF> >0x33 TIF> >0x35 TIF> >0x35 TIF> >0x35 TIF> >0x35 TIF> >0x33 TIF> >0x33 TIF> >0x35 TIF> >0x35 TIF> >0x35 TIF> >0x33 TIF> >0x33 TIF>TPIU fitted. >0x35 TIF> >0x35 TIF> >0x35 TIF> >0x33 TIF>
 >0x33 TIF> >0x35 TIF> >0x35 TIF> >0x35 TIF> >0x33 TIF> >0x33 TIF> >0x35 TIF> >0x35 TIF> >0x35 TIF> >0x33 TIF> >0x33 TIF>  FPUnit: 6 code (BP) slots and 2 literal slots >0x35 TIF> >0x35 TIF> >0x35 TIF> >0x33 TIF> >0x33 TIF> >0x35 TIF> >0x35 TIF> >0x35 TIF> >0x33 TIF> >0x33 TIF> >0x35 TIF> >0x35 TIF> >0x35 TIF> >0x33 TIF> >0x33 TIF>Found Cortex-M3 r1p1, Little endian.  returns 0x00 (0062ms, 1391ms total)
T12B0 001:497 JLINK_IsHalted()  returns TRUE (0000ms, 1453ms total)
T12B0 001:497 JLINK_ReadMemU32(0xE000EDF0, 0x0001 Items, ...) -- CPU_ReadMem(4 bytes @ 0xE000EDF0) -- Data:  03 00 03 00  returns 0x01 (0001ms, 1453ms total)
T12B0 001:498 JLINK_WriteU32(0xE000EDF0, 0xA05F0003) -- CPU_WriteMem(4 bytes @ 0xE000EDF0)  returns 0x00 (0000ms, 1454ms total)
T12B0 001:498 JLINK_WriteU32(0xE000EDFC, 0x01000000) -- CPU_WriteMem(4 bytes @ 0xE000EDFC)  returns 0x00 (0001ms, 1454ms total)
T12B0 001:499 JLINK_ReadMemU32(0xE0002000, 0x0001 Items, ...) -- CPU_ReadMem(4 bytes @ 0xE0002000) -- Data:  60 02 00 00  returns 0x01 (0001ms, 1455ms total)
T12B0 001:500 JLINK_ReadMemU32(0xE0001000, 0x0001 Items, ...) -- CPU_ReadMem(4 bytes @ 0xE0001000) -- Data:  00 00 00 40  returns 0x01 (0001ms, 1456ms total)
T12B0 001:501 JLINK_WriteU32(0xE0001028, 0x00000000) -- CPU_WriteMem(4 bytes @ 0xE0001028)  returns 0x00 (0001ms, 1457ms total)
T12B0 001:502 JLINK_WriteU32(0xE0001038, 0x00000000) -- CPU_WriteMem(4 bytes @ 0xE0001038)  returns 0x00 (0001ms, 1458ms total)
T12B0 001:503 JLINK_WriteU32(0xE0001048, 0x00000000) -- CPU_WriteMem(4 bytes @ 0xE0001048)  returns 0x00 (0001ms, 1459ms total)
T12B0 001:504 JLINK_WriteU32(0xE0001058, 0x00000000) -- CPU_WriteMem(4 bytes @ 0xE0001058)  returns 0x00 (0000ms, 1460ms total)
T12B0 001:512 JLINK_GetHWStatus(...)  returns 0x00 (0000ms, 1460ms total)
T12B0 001:516 JLINK_GetNumBPUnits(Type = 0xFFFFFF00)  returns 0x06 (0000ms, 1460ms total)
T12B0 001:516 JLINK_GetNumBPUnits(Type = 0xF0)  returns 0x2000 (0000ms, 1460ms total)
T12B0 001:516 JLINK_GetNumWPUnits()  returns 0x04 (0000ms, 1460ms total)
T12B0 001:519 JLINK_GetSpeed()  returns 0xFA0 (0000ms, 1460ms total)
T12B0 001:521 JLINK_ReadMemU32(0xE000E004, 0x0001 Items, ...) -- CPU_ReadMem(4 bytes @ 0xE000E004) -- Data:  01 00 00 00  returns 0x01 (0001ms, 1460ms total)
T12B0 001:522 JLINK_ReadMemU32(0xE000E004, 0x0001 Items, ...) -- CPU_ReadMem(4 bytes @ 0xE000E004) -- Data:  01 00 00 00  returns 0x01 (0001ms, 1461ms total)
T12B0 001:523 JLINK_WriteMem(0xE0001000, 0x001C Bytes, ...) -- Data:  01 00 00 00 00 00 00 00 00 00 00 00 00 00 00 00 ... -- CPU_WriteMem(28 bytes @ 0xE0001000)  returns 0x1C (0001ms, 1462ms total)
T12B0 001:524 JLINK_ReadMem (0xE0001000, 0x001C Bytes, ...) -- CPU_ReadMem(28 bytes @ 0xE0001000) -- Data:  01 00 00 40 00 00 00 00 00 00 00 00 00 00 00 00 ...  returns 0x00 (0001ms, 1463ms total)
T12B0 001:525 JLINK_Halt()  returns 0x00 (0000ms, 1464ms total)
T12B0 001:525 JLINK_IsHalted()  returns TRUE (0000ms, 1464ms total)
T12B0 001:535 JLINK_WriteMem(0x20000000, 0x0164 Bytes, ...) -- Data:  00 BE 0A E0 0D 78 2D 06 68 40 08 24 40 00 00 D3 ... -- CPU_WriteMem(356 bytes @ 0x20000000)  returns 0x164 (0003ms, 1464ms total)
T12B0 001:538 JLINK_WriteReg(R0, 0x08000000)  returns 0x00 (0000ms, 1467ms total)
T12B0 001:538 JLINK_WriteReg(R1, 0x00A8C000)  returns 0x00 (0001ms, 1467ms total)
T12B0 001:539 JLINK_WriteReg(R2, 0x00000001)  returns 0x00 (0000ms, 1468ms total)
T12B0 001:539 JLINK_WriteReg(R3, 0x00000000)  returns 0x00 (0000ms, 1468ms total)
T12B0 001:539 JLINK_WriteReg(R4, 0x00000000)  returns 0x00 (0000ms, 1468ms total)
T12B0 001:539 JLINK_WriteReg(R5, 0x00000000)  returns 0x00 (0000ms, 1468ms total)
T12B0 001:539 JLINK_WriteReg(R6, 0x00000000)  returns 0x00 (0000ms, 1468ms total)
T12B0 001:539 JLINK_WriteReg(R7, 0x00000000)  returns 0x00 (0000ms, 1468ms total)
T12B0 001:539 JLINK_WriteReg(R8, 0x00000000)  returns 0x00 (0000ms, 1468ms total)
T12B0 001:539 JLINK_WriteReg(R9, 0x20000160)  returns 0x00 (0000ms, 1468ms total)
T12B0 001:539 JLINK_WriteReg(R10, 0x00000000)  returns 0x00 (0000ms, 1468ms total)
T12B0 001:539 JLINK_WriteReg(R11, 0x00000000)  returns 0x00 (0000ms, 1468ms total)
T12B0 001:539 JLINK_WriteReg(R12, 0x00000000)  returns 0x00 (0000ms, 1468ms total)
T12B0 001:539 JLINK_WriteReg(R13, 0x20000800)  returns 0x00 (0000ms, 1468ms total)
T12B0 001:539 JLINK_WriteReg(R14, 0x20000001)  returns 0x00 (0000ms, 1468ms total)
T12B0 001:539 JLINK_WriteReg(R15, 0x20000038)  returns 0x00 (0001ms, 1468ms total)
T12B0 001:540 JLINK_WriteReg(XPSR, 0x01000000)  returns 0x00 (0000ms, 1469ms total)
T12B0 001:540 JLINK_WriteReg(MSP, 0x20000800)  returns 0x00 (0000ms, 1469ms total)
T12B0 001:540 JLINK_WriteReg(PSP, 0x20000800)  returns 0x00 (0000ms, 1469ms total)
T12B0 001:540 JLINK_WriteReg(CFBP, 0x00000000)  returns 0x00 (0000ms, 1469ms total)
T12B0 001:540 JLINK_SetBPEx(Addr = 0x20000000, Type = 0xFFFFFFF2) -- CPU_ReadMem(2 bytes @ 0x20000000)  returns 0x00000001 (0001ms, 1469ms total)
T12B0 001:541 JLINK_Go() -- CPU_WriteMem(2 bytes @ 0x20000000) -- CPU_WriteMem(4 bytes @ 0xE0002008) -- CPU_WriteMem(4 bytes @ 0xE000200C) -- CPU_WriteMem(4 bytes @ 0xE0002010) -- CPU_WriteMem(4 bytes @ 0xE0002014) -- CPU_WriteMem(4 bytes @ 0xE0002018) -- CPU_WriteMem(4 bytes @ 0xE000201C) (0008ms, 1470ms total)
T12B0 001:549 JLINK_IsHalted() -- CPU_ReadMem(2 bytes @ 0x20000000)  returns TRUE (0005ms, 1478ms total)
T12B0 001:554 JLINK_ReadReg(R15)  returns 0x20000000 (0000ms, 1478ms total)
T12B0 001:554 JLINK_ClrBPEx(BPHandle = 0x00000001)  returns 0x00 (0000ms, 1478ms total)
T12B0 001:554 JLINK_ReadReg(R0)  returns 0x00000000 (0000ms, 1478ms total)
T12B0 001:555 JLINK_WriteReg(R0, 0x08000000)  returns 0x00 (0000ms, 1478ms total)
T12B0 001:555 JLINK_WriteReg(R1, 0x00A8C000)  returns 0x00 (0000ms, 1478ms total)
T12B0 001:555 JLINK_WriteReg(R2, 0x00000001)  returns 0x00 (0000ms, 1478ms total)
T12B0 001:555 JLINK_WriteReg(R3, 0x00000000)  returns 0x00 (0000ms, 1478ms total)
T12B0 001:555 JLINK_WriteReg(R4, 0x00000000)  returns 0x00 (0001ms, 1478ms total)
T12B0 001:556 JLINK_WriteReg(R5, 0x00000000)  returns 0x00 (0000ms, 1479ms total)
T12B0 001:556 JLINK_WriteReg(R6, 0x00000000)  returns 0x00 (0000ms, 1479ms total)
T12B0 001:556 JLINK_WriteReg(R7, 0x00000000)  returns 0x00 (0000ms, 1479ms total)
T12B0 001:556 JLINK_WriteReg(R8, 0x00000000)  returns 0x00 (0000ms, 1479ms total)
T12B0 001:556 JLINK_WriteReg(R9, 0x20000160)  returns 0x00 (0000ms, 1479ms total)
T12B0 001:556 JLINK_WriteReg(R10, 0x00000000)  returns 0x00 (0000ms, 1479ms total)
T12B0 001:556 JLINK_WriteReg(R11, 0x00000000)  returns 0x00 (0000ms, 1479ms total)
T12B0 001:556 JLINK_WriteReg(R12, 0x00000000)  returns 0x00 (0000ms, 1479ms total)
T12B0 001:556 JLINK_WriteReg(R13, 0x20000800)  returns 0x00 (0000ms, 1479ms total)
T12B0 001:556 JLINK_WriteReg(R14, 0x20000001)  returns 0x00 (0000ms, 1479ms total)
T12B0 001:556 JLINK_WriteReg(R15, 0x2000007C)  returns 0x00 (0000ms, 1479ms total)
T12B0 001:556 JLINK_WriteReg(XPSR, 0x01000000)  returns 0x00 (0000ms, 1479ms total)
T12B0 001:556 JLINK_WriteReg(MSP, 0x20000800)  returns 0x00 (0000ms, 1479ms total)
T12B0 001:556 JLINK_WriteReg(PSP, 0x20000800)  returns 0x00 (0000ms, 1479ms total)
T12B0 001:556 JLINK_WriteReg(CFBP, 0x00000000)  returns 0x00 (0000ms, 1479ms total)
T12B0 001:556 JLINK_SetBPEx(Addr = 0x20000000, Type = 0xFFFFFFF2)  returns 0x00000002 (0000ms, 1479ms total)
T12B0 001:556 JLINK_Go() -- CPU_WriteMem(4 bytes @ 0xE0002008) -- CPU_WriteMem(4 bytes @ 0xE000200C) -- CPU_WriteMem(4 bytes @ 0xE0002010) -- CPU_WriteMem(4 bytes @ 0xE0002014) -- CPU_WriteMem(4 bytes @ 0xE0002018) -- CPU_WriteMem(4 bytes @ 0xE000201C) (0007ms, 1479ms total)
T12B0 001:563 JLINK_IsHalted()  returns FALSE (0001ms, 1486ms total)
T12B0 001:614 JLINK_IsHalted() -- CPU_ReadMem(2 bytes @ 0x20000000)  returns TRUE (0005ms, 1486ms total)
T12B0 001:619 JLINK_ReadReg(R15)  returns 0x20000000 (0000ms, 1486ms total)
T12B0 001:619 JLINK_ClrBPEx(BPHandle = 0x00000002)  returns 0x00 (0000ms, 1486ms total)
T12B0 001:619 JLINK_ReadReg(R0)  returns 0x00000000 (0000ms, 1486ms total)
T12B0 001:671 JLINK_WriteReg(R0, 0x00000001)  returns 0x00 (0000ms, 1486ms total)
T12B0 001:671 JLINK_WriteReg(R1, 0x00A8C000)  returns 0x00 (0000ms, 1486ms total)
T12B0 001:671 JLINK_WriteReg(R2, 0x00000001)  returns 0x00 (0000ms, 1486ms total)
T12B0 001:671 JLINK_WriteReg(R3, 0x00000000)  returns 0x00 (0000ms, 1486ms total)
T12B0 001:671 JLINK_WriteReg(R4, 0x00000000)  returns 0x00 (0000ms, 1486ms total)
T12B0 001:671 JLINK_WriteReg(R5, 0x00000000)  returns 0x00 (0000ms, 1486ms total)
T12B0 001:671 JLINK_WriteReg(R6, 0x00000000)  returns 0x00 (0000ms, 1486ms total)
T12B0 001:671 JLINK_WriteReg(R7, 0x00000000)  returns 0x00 (0000ms, 1486ms total)
T12B0 001:671 JLINK_WriteReg(R8, 0x00000000)  returns 0x00 (0000ms, 1486ms total)
T12B0 001:671 JLINK_WriteReg(R9, 0x20000160)  returns 0x00 (0000ms, 1486ms total)
T12B0 001:671 JLINK_WriteReg(R10, 0x00000000)  returns 0x00 (0000ms, 1486ms total)
T12B0 001:671 JLINK_WriteReg(R11, 0x00000000)  returns 0x00 (0000ms, 1486ms total)
T12B0 001:671 JLINK_WriteReg(R12, 0x00000000)  returns 0x00 (0000ms, 1486ms total)
T12B0 001:671 JLINK_WriteReg(R13, 0x20000800)  returns 0x00 (0000ms, 1486ms total)
T12B0 001:671 JLINK_WriteReg(R14, 0x20000001)  returns 0x00 (0000ms, 1486ms total)
T12B0 001:671 JLINK_WriteReg(R15, 0x2000006A)  returns 0x00 (0001ms, 1486ms total)
T12B0 001:672 JLINK_WriteReg(XPSR, 0x01000000)  returns 0x00 (0000ms, 1487ms total)
T12B0 001:672 JLINK_WriteReg(MSP, 0x20000800)  returns 0x00 (0000ms, 1487ms total)
T12B0 001:672 JLINK_WriteReg(PSP, 0x20000800)  returns 0x00 (0000ms, 1487ms total)
T12B0 001:672 JLINK_WriteReg(CFBP, 0x00000000)  returns 0x00 (0000ms, 1487ms total)
T12B0 001:672 JLINK_SetBPEx(Addr = 0x20000000, Type = 0xFFFFFFF2)  returns 0x00000003 (0000ms, 1487ms total)
T12B0 001:672 JLINK_Go() -- CPU_WriteMem(4 bytes @ 0xE0002008) -- CPU_WriteMem(4 bytes @ 0xE000200C) -- CPU_WriteMem(4 bytes @ 0xE0002010) -- CPU_WriteMem(4 bytes @ 0xE0002014) -- CPU_WriteMem(4 bytes @ 0xE0002018) -- CPU_WriteMem(4 bytes @ 0xE000201C) (0007ms, 1487ms total)
T12B0 001:679 JLINK_IsHalted() -- CPU_ReadMem(2 bytes @ 0x20000000)  returns TRUE (0004ms, 1494ms total)
T12B0 001:683 JLINK_ReadReg(R15)  returns 0x20000000 (0000ms, 1494ms total)
T12B0 001:683 JLINK_ClrBPEx(BPHandle = 0x00000003)  returns 0x00 (0000ms, 1494ms total)
T12B0 001:683 JLINK_ReadReg(R0)  returns 0x00000000 (0000ms, 1494ms total)
T12B0 001:691 JLINK_WriteMem(0x20000000, 0x0164 Bytes, ...) -- Data:  00 BE 0A E0 0D 78 2D 06 68 40 08 24 40 00 00 D3 ... -- CPU_WriteMem(356 bytes @ 0x20000000)  returns 0x164 (0003ms, 1494ms total)
T12B0 001:694 JLINK_WriteReg(R0, 0x08000000)  returns 0x00 (0000ms, 1497ms total)
T12B0 001:694 JLINK_WriteReg(R1, 0x00A8C000)  returns 0x00 (0000ms, 1497ms total)
T12B0 001:694 JLINK_WriteReg(R2, 0x00000002)  returns 0x00 (0000ms, 1497ms total)
T12B0 001:694 JLINK_WriteReg(R3, 0x00000000)  returns 0x00 (0000ms, 1497ms total)
T12B0 001:694 JLINK_WriteReg(R4, 0x00000000)  returns 0x00 (0000ms, 1497ms total)
T12B0 001:695 JLINK_WriteReg(R5, 0x00000000)  returns 0x00 (0000ms, 1498ms total)
T12B0 001:695 JLINK_WriteReg(R6, 0x00000000)  returns 0x00 (0000ms, 1498ms total)
T12B0 001:695 JLINK_WriteReg(R7, 0x00000000)  returns 0x00 (0000ms, 1498ms total)
T12B0 001:695 JLINK_WriteReg(R8, 0x00000000)  returns 0x00 (0000ms, 1498ms total)
T12B0 001:695 JLINK_WriteReg(R9, 0x20000160)  returns 0x00 (0000ms, 1498ms total)
T12B0 001:695 JLINK_WriteReg(R10, 0x00000000)  returns 0x00 (0000ms, 1498ms total)
T12B0 001:695 JLINK_WriteReg(R11, 0x00000000)  returns 0x00 (0000ms, 1498ms total)
T12B0 001:695 JLINK_WriteReg(R12, 0x00000000)  returns 0x00 (0000ms, 1498ms total)
T12B0 001:695 JLINK_WriteReg(R13, 0x20000800)  returns 0x00 (0000ms, 1498ms total)
T12B0 001:695 JLINK_WriteReg(R14, 0x20000001)  returns 0x00 (0000ms, 1498ms total)
T12B0 001:695 JLINK_WriteReg(R15, 0x20000038)  returns 0x00 (0000ms, 1498ms total)
T12B0 001:695 JLINK_WriteReg(XPSR, 0x01000000)  returns 0x00 (0000ms, 1498ms total)
T12B0 001:695 JLINK_WriteReg(MSP, 0x20000800)  returns 0x00 (0000ms, 1498ms total)
T12B0 001:695 JLINK_WriteReg(PSP, 0x20000800)  returns 0x00 (0000ms, 1498ms total)
T12B0 001:696 JLINK_WriteReg(CFBP, 0x00000000)  returns 0x00 (0000ms, 1499ms total)
T12B0 001:696 JLINK_SetBPEx(Addr = 0x20000000, Type = 0xFFFFFFF2) -- CPU_ReadMem(2 bytes @ 0x20000000)  returns 0x00000004 (0001ms, 1499ms total)
T12B0 001:697 JLINK_Go() -- CPU_WriteMem(2 bytes @ 0x20000000) -- CPU_WriteMem(4 bytes @ 0xE0002008) -- CPU_WriteMem(4 bytes @ 0xE000200C) -- CPU_WriteMem(4 bytes @ 0xE0002010) -- CPU_WriteMem(4 bytes @ 0xE0002014) -- CPU_WriteMem(4 bytes @ 0xE0002018) -- CPU_WriteMem(4 bytes @ 0xE000201C) (0008ms, 1500ms total)
T12B0 001:705 JLINK_IsHalted() -- CPU_ReadMem(2 bytes @ 0x20000000)  returns TRUE (0005ms, 1508ms total)
T12B0 001:710 JLINK_ReadReg(R15)  returns 0x20000000 (0000ms, 1508ms total)
T12B0 001:710 JLINK_ClrBPEx(BPHandle = 0x00000004)  returns 0x00 (0000ms, 1508ms total)
T12B0 001:710 JLINK_ReadReg(R0)  returns 0x00000000 (0000ms, 1508ms total)
T12B0 001:711 JLINK_WriteMem(0x20000164, 0x0400 Bytes, ...) -- Data:  80 0B 00 20 C9 27 00 08 19 04 00 08 1B 04 00 08 ... -- CPU_WriteMem(1024 bytes @ 0x20000164)  returns 0x400 (0006ms, 1508ms total)
T12B0 001:717 JLINK_WriteReg(R0, 0x08000000)  returns 0x00 (0000ms, 1514ms total)
T12B0 001:717 JLINK_WriteReg(R1, 0x00000400)  returns 0x00 (0000ms, 1514ms total)
T12B0 001:717 JLINK_WriteReg(R2, 0x20000164)  returns 0x00 (0000ms, 1514ms total)
T12B0 001:717 JLINK_WriteReg(R3, 0x00000000)  returns 0x00 (0000ms, 1514ms total)
T12B0 001:717 JLINK_WriteReg(R4, 0x00000000)  returns 0x00 (0000ms, 1514ms total)
T12B0 001:717 JLINK_WriteReg(R5, 0x00000000)  returns 0x00 (0000ms, 1514ms total)
T12B0 001:717 JLINK_WriteReg(R6, 0x00000000)  returns 0x00 (0000ms, 1514ms total)
T12B0 001:717 JLINK_WriteReg(R7, 0x00000000)  returns 0x00 (0001ms, 1514ms total)
T12B0 001:718 JLINK_WriteReg(R8, 0x00000000)  returns 0x00 (0000ms, 1515ms total)
T12B0 001:718 JLINK_WriteReg(R9, 0x20000160)  returns 0x00 (0000ms, 1515ms total)
T12B0 001:718 JLINK_WriteReg(R10, 0x00000000)  returns 0x00 (0000ms, 1515ms total)
T12B0 001:718 JLINK_WriteReg(R11, 0x00000000)  returns 0x00 (0000ms, 1515ms total)
T12B0 001:718 JLINK_WriteReg(R12, 0x00000000)  returns 0x00 (0000ms, 1515ms total)
T12B0 001:718 JLINK_WriteReg(R13, 0x20000800)  returns 0x00 (0000ms, 1515ms total)
T12B0 001:718 JLINK_WriteReg(R14, 0x20000001)  returns 0x00 (0000ms, 1515ms total)
T12B0 001:718 JLINK_WriteReg(R15, 0x200000F4)  returns 0x00 (0000ms, 1515ms total)
T12B0 001:718 JLINK_WriteReg(XPSR, 0x01000000)  returns 0x00 (0000ms, 1515ms total)
T12B0 001:718 JLINK_WriteReg(MSP, 0x20000800)  returns 0x00 (0000ms, 1515ms total)
T12B0 001:718 JLINK_WriteReg(PSP, 0x20000800)  returns 0x00 (0000ms, 1515ms total)
T12B0 001:718 JLINK_WriteReg(CFBP, 0x00000000)  returns 0x00 (0000ms, 1515ms total)
T12B0 001:718 JLINK_SetBPEx(Addr = 0x20000000, Type = 0xFFFFFFF2)  returns 0x00000005 (0000ms, 1515ms total)
T12B0 001:718 JLINK_Go() -- CPU_WriteMem(4 bytes @ 0xE0002008) -- CPU_WriteMem(4 bytes @ 0xE000200C) -- CPU_WriteMem(4 bytes @ 0xE0002010) -- CPU_WriteMem(4 bytes @ 0xE0002014) -- CPU_WriteMem(4 bytes @ 0xE0002018) -- CPU_WriteMem(4 bytes @ 0xE000201C) (0007ms, 1515ms total)
T12B0 001:725 JLINK_IsHalted()  returns FALSE (0001ms, 1522ms total)
T12B0 001:776 JLINK_IsHalted() -- CPU_ReadMem(2 bytes @ 0x20000000)  returns TRUE (0004ms, 1522ms total)
T12B0 001:780 JLINK_ReadReg(R15)  returns 0x20000000 (0000ms, 1522ms total)
T12B0 001:780 JLINK_ClrBPEx(BPHandle = 0x00000005)  returns 0x00 (0001ms, 1522ms total)
T12B0 001:781 JLINK_ReadReg(R0)  returns 0x00000000 (0000ms, 1523ms total)
T12B0 001:781 JLINK_WriteMem(0x20000164, 0x0400 Bytes, ...) -- Data:  80 FB BD E8 F8 40 00 F0 7F B9 00 00 01 00 22 00 ... -- CPU_WriteMem(1024 bytes @ 0x20000164)  returns 0x400 (0008ms, 1523ms total)
T12B0 001:789 JLINK_WriteReg(R0, 0x08000400)  returns 0x00 (0000ms, 1531ms total)
T12B0 001:789 JLINK_WriteReg(R1, 0x00000400)  returns 0x00 (0000ms, 1531ms total)
T12B0 001:789 JLINK_WriteReg(R2, 0x20000164)  returns 0x00 (0000ms, 1531ms total)
T12B0 001:789 JLINK_WriteReg(R3, 0x00000000)  returns 0x00 (0000ms, 1531ms total)
T12B0 001:789 JLINK_WriteReg(R4, 0x00000000)  returns 0x00 (0000ms, 1531ms total)
T12B0 001:789 JLINK_WriteReg(R5, 0x00000000)  returns 0x00 (0000ms, 1531ms total)
T12B0 001:789 JLINK_WriteReg(R6, 0x00000000)  returns 0x00 (0000ms, 1531ms total)
T12B0 001:789 JLINK_WriteReg(R7, 0x00000000)  returns 0x00 (0001ms, 1531ms total)
T12B0 001:790 JLINK_WriteReg(R8, 0x00000000)  returns 0x00 (0000ms, 1532ms total)
T12B0 001:790 JLINK_WriteReg(R9, 0x20000160)  returns 0x00 (0000ms, 1532ms total)
T12B0 001:790 JLINK_WriteReg(R10, 0x00000000)  returns 0x00 (0000ms, 1532ms total)
T12B0 001:790 JLINK_WriteReg(R11, 0x00000000)  returns 0x00 (0000ms, 1532ms total)
T12B0 001:790 JLINK_WriteReg(R12, 0x00000000)  returns 0x00 (0000ms, 1532ms total)
T12B0 001:790 JLINK_WriteReg(R13, 0x20000800)  returns 0x00 (0000ms, 1532ms total)
T12B0 001:790 JLINK_WriteReg(R14, 0x20000001)  returns 0x00 (0000ms, 1532ms total)
T12B0 001:790 JLINK_WriteReg(R15, 0x200000F4)  returns 0x00 (0000ms, 1532ms total)
T12B0 001:790 JLINK_WriteReg(XPSR, 0x01000000)  returns 0x00 (0000ms, 1532ms total)
T12B0 001:790 JLINK_WriteReg(MSP, 0x20000800)  returns 0x00 (0000ms, 1532ms total)
T12B0 001:790 JLINK_WriteReg(PSP, 0x20000800)  returns 0x00 (0000ms, 1532ms total)
T12B0 001:790 JLINK_WriteReg(CFBP, 0x00000000)  returns 0x00 (0000ms, 1532ms total)
T12B0 001:790 JLINK_SetBPEx(Addr = 0x20000000, Type = 0xFFFFFFF2)  returns 0x00000006 (0000ms, 1532ms total)
T12B0 001:790 JLINK_Go() -- CPU_WriteMem(4 bytes @ 0xE0002008) -- CPU_WriteMem(4 bytes @ 0xE000200C) -- CPU_WriteMem(4 bytes @ 0xE0002010) -- CPU_WriteMem(4 bytes @ 0xE0002014) -- CPU_WriteMem(4 bytes @ 0xE0002018) -- CPU_WriteMem(4 bytes @ 0xE000201C) (0006ms, 1532ms total)
T12B0 001:796 JLINK_IsHalted()  returns FALSE (0002ms, 1538ms total)
T12B0 001:848 JLINK_IsHalted() -- CPU_ReadMem(2 bytes @ 0x20000000)  returns TRUE (0006ms, 1538ms total)
T12B0 001:854 JLINK_ReadReg(R15)  returns 0x20000000 (0000ms, 1538ms total)
T12B0 001:854 JLINK_ClrBPEx(BPHandle = 0x00000006)  returns 0x00 (0000ms, 1538ms total)
T12B0 001:854 JLINK_ReadReg(R0)  returns 0x00000000 (0001ms, 1538ms total)
T12B0 001:856 JLINK_WriteMem(0x20000164, 0x0400 Bytes, ...) -- Data:  00 28 FA D1 06 B0 10 BD 2D E9 F0 41 0F 00 4F F0 ... -- CPU_WriteMem(1024 bytes @ 0x20000164)  returns 0x400 (0006ms, 1539ms total)
T12B0 001:862 JLINK_WriteReg(R0, 0x08000800)  returns 0x00 (0000ms, 1545ms total)
T12B0 001:862 JLINK_WriteReg(R1, 0x00000400)  returns 0x00 (0000ms, 1545ms total)
T12B0 001:862 JLINK_WriteReg(R2, 0x20000164)  returns 0x00 (0000ms, 1545ms total)
T12B0 001:862 JLINK_WriteReg(R3, 0x00000000)  returns 0x00 (0000ms, 1545ms total)
T12B0 001:862 JLINK_WriteReg(R4, 0x00000000)  returns 0x00 (0000ms, 1545ms total)
T12B0 001:862 JLINK_WriteReg(R5, 0x00000000)  returns 0x00 (0000ms, 1545ms total)
T12B0 001:862 JLINK_WriteReg(R6, 0x00000000)  returns 0x00 (0000ms, 1545ms total)
T12B0 001:862 JLINK_WriteReg(R7, 0x00000000)  returns 0x00 (0000ms, 1545ms total)
T12B0 001:862 JLINK_WriteReg(R8, 0x00000000)  returns 0x00 (0000ms, 1545ms total)
T12B0 001:862 JLINK_WriteReg(R9, 0x20000160)  returns 0x00 (0000ms, 1545ms total)
T12B0 001:862 JLINK_WriteReg(R10, 0x00000000)  returns 0x00 (0001ms, 1545ms total)
T12B0 001:863 JLINK_WriteReg(R11, 0x00000000)  returns 0x00 (0000ms, 1546ms total)
T12B0 001:863 JLINK_WriteReg(R12, 0x00000000)  returns 0x00 (0000ms, 1546ms total)
T12B0 001:863 JLINK_WriteReg(R13, 0x20000800)  returns 0x00 (0000ms, 1546ms total)
T12B0 001:863 JLINK_WriteReg(R14, 0x20000001)  returns 0x00 (0000ms, 1546ms total)
T12B0 001:863 JLINK_WriteReg(R15, 0x200000F4)  returns 0x00 (0000ms, 1546ms total)
T12B0 001:863 JLINK_WriteReg(XPSR, 0x01000000)  returns 0x00 (0000ms, 1546ms total)
T12B0 001:863 JLINK_WriteReg(MSP, 0x20000800)  returns 0x00 (0000ms, 1546ms total)
T12B0 001:863 JLINK_WriteReg(PSP, 0x20000800)  returns 0x00 (0000ms, 1546ms total)
T12B0 001:863 JLINK_WriteReg(CFBP, 0x00000000)  returns 0x00 (0000ms, 1546ms total)
T12B0 001:863 JLINK_SetBPEx(Addr = 0x20000000, Type = 0xFFFFFFF2)  returns 0x00000007 (0000ms, 1546ms total)
T12B0 001:863 JLINK_Go() -- CPU_WriteMem(4 bytes @ 0xE0002008) -- CPU_WriteMem(4 bytes @ 0xE000200C) -- CPU_WriteMem(4 bytes @ 0xE0002010) -- CPU_WriteMem(4 bytes @ 0xE0002014) -- CPU_WriteMem(4 bytes @ 0xE0002018) -- CPU_WriteMem(4 bytes @ 0xE000201C) (0009ms, 1546ms total)
T12B0 001:872 JLINK_IsHalted()  returns FALSE (0001ms, 1555ms total)
T12B0 001:923 JLINK_IsHalted() -- CPU_ReadMem(2 bytes @ 0x20000000)  returns TRUE (0005ms, 1555ms total)
T12B0 001:928 JLINK_ReadReg(R15)  returns 0x20000000 (0000ms, 1555ms total)
T12B0 001:928 JLINK_ClrBPEx(BPHandle = 0x00000007)  returns 0x00 (0000ms, 1555ms total)
T12B0 001:928 JLINK_ReadReg(R0)  returns 0x00000000 (0000ms, 1555ms total)
T12B0 001:929 JLINK_WriteMem(0x20000164, 0x0400 Bytes, ...) -- Data:  C0 D3 01 21 00 98 00 F0 C0 FC 48 46 55 E7 00 00 ... -- CPU_WriteMem(1024 bytes @ 0x20000164)  returns 0x400 (0007ms, 1555ms total)
T12B0 001:936 JLINK_WriteReg(R0, 0x08000C00)  returns 0x00 (0000ms, 1562ms total)
T12B0 001:936 JLINK_WriteReg(R1, 0x00000400)  returns 0x00 (0000ms, 1562ms total)
T12B0 001:936 JLINK_WriteReg(R2, 0x20000164)  returns 0x00 (0000ms, 1562ms total)
T12B0 001:936 JLINK_WriteReg(R3, 0x00000000)  returns 0x00 (0000ms, 1562ms total)
T12B0 001:936 JLINK_WriteReg(R4, 0x00000000)  returns 0x00 (0000ms, 1562ms total)
T12B0 001:936 JLINK_WriteReg(R5, 0x00000000)  returns 0x00 (0000ms, 1562ms total)
T12B0 001:936 JLINK_WriteReg(R6, 0x00000000)  returns 0x00 (0000ms, 1562ms total)
T12B0 001:936 JLINK_WriteReg(R7, 0x00000000)  returns 0x00 (0000ms, 1562ms total)
T12B0 001:936 JLINK_WriteReg(R8, 0x00000000)  returns 0x00 (0000ms, 1562ms total)
T12B0 001:936 JLINK_WriteReg(R9, 0x20000160)  returns 0x00 (0000ms, 1562ms total)
T12B0 001:936 JLINK_WriteReg(R10, 0x00000000)  returns 0x00 (0000ms, 1562ms total)
T12B0 001:936 JLINK_WriteReg(R11, 0x00000000)  returns 0x00 (0000ms, 1562ms total)
T12B0 001:936 JLINK_WriteReg(R12, 0x00000000)  returns 0x00 (0000ms, 1562ms total)
T12B0 001:936 JLINK_WriteReg(R13, 0x20000800)  returns 0x00 (0001ms, 1562ms total)
T12B0 001:937 JLINK_WriteReg(R14, 0x20000001)  returns 0x00 (0000ms, 1563ms total)
T12B0 001:937 JLINK_WriteReg(R15, 0x200000F4)  returns 0x00 (0000ms, 1563ms total)
T12B0 001:937 JLINK_WriteReg(XPSR, 0x01000000)  returns 0x00 (0000ms, 1563ms total)
T12B0 001:937 JLINK_WriteReg(MSP, 0x20000800)  returns 0x00 (0000ms, 1563ms total)
T12B0 001:937 JLINK_WriteReg(PSP, 0x20000800)  returns 0x00 (0000ms, 1563ms total)
T12B0 001:937 JLINK_WriteReg(CFBP, 0x00000000)  returns 0x00 (0000ms, 1563ms total)
T12B0 001:937 JLINK_SetBPEx(Addr = 0x20000000, Type = 0xFFFFFFF2)  returns 0x00000008 (0000ms, 1563ms total)
T12B0 001:937 JLINK_Go() -- CPU_WriteMem(4 bytes @ 0xE0002008) -- CPU_WriteMem(4 bytes @ 0xE000200C) -- CPU_WriteMem(4 bytes @ 0xE0002010) -- CPU_WriteMem(4 bytes @ 0xE0002014) -- CPU_WriteMem(4 bytes @ 0xE0002018) -- CPU_WriteMem(4 bytes @ 0xE000201C) (0007ms, 1563ms total)
T12B0 001:944 JLINK_IsHalted()  returns FALSE (0001ms, 1570ms total)
T12B0 001:995 JLINK_IsHalted() -- CPU_ReadMem(2 bytes @ 0x20000000)  returns TRUE (0004ms, 1570ms total)
T12B0 001:999 JLINK_ReadReg(R15)  returns 0x20000000 (0000ms, 1570ms total)
T12B0 001:999 JLINK_ClrBPEx(BPHandle = 0x00000008)  returns 0x00 (0000ms, 1570ms total)
T12B0 001:999 JLINK_ReadReg(R0)  returns 0x00000000 (0000ms, 1570ms total)
T12B0 002:001 JLINK_WriteMem(0x20000164, 0x0400 Bytes, ...) -- Data:  01 EB 41 04 A6 40 B5 43 A3 40 1D 43 05 61 1F 23 ... -- CPU_WriteMem(1024 bytes @ 0x20000164)  returns 0x400 (0006ms, 1570ms total)
T12B0 002:007 JLINK_WriteReg(R0, 0x08001000)  returns 0x00 (0000ms, 1576ms total)
T12B0 002:007 JLINK_WriteReg(R1, 0x00000400)  returns 0x00 (0001ms, 1576ms total)
T12B0 002:008 JLINK_WriteReg(R2, 0x20000164)  returns 0x00 (0000ms, 1577ms total)
T12B0 002:008 JLINK_WriteReg(R3, 0x00000000)  returns 0x00 (0000ms, 1577ms total)
T12B0 002:008 JLINK_WriteReg(R4, 0x00000000)  returns 0x00 (0000ms, 1577ms total)
T12B0 002:008 JLINK_WriteReg(R5, 0x00000000)  returns 0x00 (0000ms, 1577ms total)
T12B0 002:008 JLINK_WriteReg(R6, 0x00000000)  returns 0x00 (0000ms, 1577ms total)
T12B0 002:008 JLINK_WriteReg(R7, 0x00000000)  returns 0x00 (0000ms, 1577ms total)
T12B0 002:008 JLINK_WriteReg(R8, 0x00000000)  returns 0x00 (0000ms, 1577ms total)
T12B0 002:008 JLINK_WriteReg(R9, 0x20000160)  returns 0x00 (0000ms, 1577ms total)
T12B0 002:008 JLINK_WriteReg(R10, 0x00000000)  returns 0x00 (0000ms, 1577ms total)
T12B0 002:008 JLINK_WriteReg(R11, 0x00000000)  returns 0x00 (0000ms, 1577ms total)
T12B0 002:008 JLINK_WriteReg(R12, 0x00000000)  returns 0x00 (0000ms, 1577ms total)
T12B0 002:008 JLINK_WriteReg(R13, 0x20000800)  returns 0x00 (0000ms, 1577ms total)
T12B0 002:008 JLINK_WriteReg(R14, 0x20000001)  returns 0x00 (0000ms, 1577ms total)
T12B0 002:008 JLINK_WriteReg(R15, 0x200000F4)  returns 0x00 (0000ms, 1577ms total)
T12B0 002:008 JLINK_WriteReg(XPSR, 0x01000000)  returns 0x00 (0000ms, 1577ms total)
T12B0 002:008 JLINK_WriteReg(MSP, 0x20000800)  returns 0x00 (0000ms, 1577ms total)
T12B0 002:008 JLINK_WriteReg(PSP, 0x20000800)  returns 0x00 (0000ms, 1577ms total)
T12B0 002:008 JLINK_WriteReg(CFBP, 0x00000000)  returns 0x00 (0001ms, 1577ms total)
T12B0 002:009 JLINK_SetBPEx(Addr = 0x20000000, Type = 0xFFFFFFF2)  returns 0x00000009 (0000ms, 1578ms total)
T12B0 002:009 JLINK_Go() -- CPU_WriteMem(4 bytes @ 0xE0002008) -- CPU_WriteMem(4 bytes @ 0xE000200C) -- CPU_WriteMem(4 bytes @ 0xE0002010) -- CPU_WriteMem(4 bytes @ 0xE0002014) -- CPU_WriteMem(4 bytes @ 0xE0002018) -- CPU_WriteMem(4 bytes @ 0xE000201C) (0007ms, 1578ms total)
T12B0 002:016 JLINK_IsHalted()  returns FALSE (0001ms, 1585ms total)
T12B0 002:067 JLINK_IsHalted() -- CPU_ReadMem(2 bytes @ 0x20000000)  returns TRUE (0005ms, 1585ms total)
T12B0 002:072 JLINK_ReadReg(R15)  returns 0x20000000 (0000ms, 1585ms total)
T12B0 002:072 JLINK_ClrBPEx(BPHandle = 0x00000009)  returns 0x00 (0000ms, 1585ms total)
T12B0 002:072 JLINK_ReadReg(R0)  returns 0x00000000 (0000ms, 1585ms total)
T12B0 002:073 JLINK_WriteMem(0x20000164, 0x0400 Bytes, ...) -- Data:  8B 60 10 BD 0A 49 08 60 70 47 00 00 00 08 01 40 ... -- CPU_WriteMem(1024 bytes @ 0x20000164)  returns 0x400 (0007ms, 1585ms total)
T12B0 002:080 JLINK_WriteReg(R0, 0x08001400)  returns 0x00 (0000ms, 1592ms total)
T12B0 002:080 JLINK_WriteReg(R1, 0x00000400)  returns 0x00 (0000ms, 1592ms total)
T12B0 002:080 JLINK_WriteReg(R2, 0x20000164)  returns 0x00 (0000ms, 1592ms total)
T12B0 002:080 JLINK_WriteReg(R3, 0x00000000)  returns 0x00 (0000ms, 1592ms total)
T12B0 002:080 JLINK_WriteReg(R4, 0x00000000)  returns 0x00 (0000ms, 1592ms total)
T12B0 002:080 JLINK_WriteReg(R5, 0x00000000)  returns 0x00 (0000ms, 1592ms total)
T12B0 002:080 JLINK_WriteReg(R6, 0x00000000)  returns 0x00 (0000ms, 1592ms total)
T12B0 002:080 JLINK_WriteReg(R7, 0x00000000)  returns 0x00 (0000ms, 1592ms total)
T12B0 002:080 JLINK_WriteReg(R8, 0x00000000)  returns 0x00 (0000ms, 1592ms total)
T12B0 002:080 JLINK_WriteReg(R9, 0x20000160)  returns 0x00 (0000ms, 1592ms total)
T12B0 002:080 JLINK_WriteReg(R10, 0x00000000)  returns 0x00 (0000ms, 1592ms total)
T12B0 002:080 JLINK_WriteReg(R11, 0x00000000)  returns 0x00 (0000ms, 1592ms total)
T12B0 002:080 JLINK_WriteReg(R12, 0x00000000)  returns 0x00 (0000ms, 1592ms total)
T12B0 002:080 JLINK_WriteReg(R13, 0x20000800)  returns 0x00 (0000ms, 1592ms total)
T12B0 002:080 JLINK_WriteReg(R14, 0x20000001)  returns 0x00 (0000ms, 1592ms total)
T12B0 002:080 JLINK_WriteReg(R15, 0x200000F4)  returns 0x00 (0000ms, 1592ms total)
T12B0 002:080 JLINK_WriteReg(XPSR, 0x01000000)  returns 0x00 (0000ms, 1592ms total)
T12B0 002:080 JLINK_WriteReg(MSP, 0x20000800)  returns 0x00 (0000ms, 1592ms total)
T12B0 002:080 JLINK_WriteReg(PSP, 0x20000800)  returns 0x00 (0000ms, 1592ms total)
T12B0 002:080 JLINK_WriteReg(CFBP, 0x00000000)  returns 0x00 (0000ms, 1592ms total)
T12B0 002:080 JLINK_SetBPEx(Addr = 0x20000000, Type = 0xFFFFFFF2)  returns 0x0000000A (0000ms, 1592ms total)
T12B0 002:080 JLINK_Go() -- CPU_WriteMem(4 bytes @ 0xE0002008) -- CPU_WriteMem(4 bytes @ 0xE000200C) -- CPU_WriteMem(4 bytes @ 0xE0002010) -- CPU_WriteMem(4 bytes @ 0xE0002014) -- CPU_WriteMem(4 bytes @ 0xE0002018) -- CPU_WriteMem(4 bytes @ 0xE000201C) (0008ms, 1592ms total)
T12B0 002:088 JLINK_IsHalted()  returns FALSE (0001ms, 1600ms total)
T12B0 002:139 JLINK_IsHalted() -- CPU_ReadMem(2 bytes @ 0x20000000)  returns TRUE (0009ms, 1600ms total)
T12B0 002:148 JLINK_ReadReg(R15)  returns 0x20000000 (0000ms, 1600ms total)
T12B0 002:148 JLINK_ClrBPEx(BPHandle = 0x0000000A)  returns 0x00 (0000ms, 1600ms total)
T12B0 002:148 JLINK_ReadReg(R0)  returns 0x00000000 (0000ms, 1600ms total)
T12B0 002:149 JLINK_WriteMem(0x20000164, 0x0400 Bytes, ...) -- Data:  F8 01 41 EA C0 00 10 60 70 47 7E 49 08 60 70 47 ... -- CPU_WriteMem(1024 bytes @ 0x20000164)  returns 0x400 (0009ms, 1600ms total)
T12B0 002:158 JLINK_WriteReg(R0, 0x08001800)  returns 0x00 (0000ms, 1609ms total)
T12B0 002:158 JLINK_WriteReg(R1, 0x00000400)  returns 0x00 (0000ms, 1609ms total)
T12B0 002:158 JLINK_WriteReg(R2, 0x20000164)  returns 0x00 (0000ms, 1609ms total)
T12B0 002:158 JLINK_WriteReg(R3, 0x00000000)  returns 0x00 (0000ms, 1609ms total)
T12B0 002:158 JLINK_WriteReg(R4, 0x00000000)  returns 0x00 (0000ms, 1609ms total)
T12B0 002:158 JLINK_WriteReg(R5, 0x00000000)  returns 0x00 (0000ms, 1609ms total)
T12B0 002:158 JLINK_WriteReg(R6, 0x00000000)  returns 0x00 (0000ms, 1609ms total)
T12B0 002:158 JLINK_WriteReg(R7, 0x00000000)  returns 0x00 (0000ms, 1609ms total)
T12B0 002:158 JLINK_WriteReg(R8, 0x00000000)  returns 0x00 (0000ms, 1609ms total)
T12B0 002:158 JLINK_WriteReg(R9, 0x20000160)  returns 0x00 (0000ms, 1609ms total)
T12B0 002:158 JLINK_WriteReg(R10, 0x00000000)  returns 0x00 (0000ms, 1609ms total)
T12B0 002:158 JLINK_WriteReg(R11, 0x00000000)  returns 0x00 (0000ms, 1609ms total)
T12B0 002:158 JLINK_WriteReg(R12, 0x00000000)  returns 0x00 (0000ms, 1609ms total)
T12B0 002:158 JLINK_WriteReg(R13, 0x20000800)  returns 0x00 (0000ms, 1609ms total)
T12B0 002:158 JLINK_WriteReg(R14, 0x20000001)  returns 0x00 (0000ms, 1609ms total)
T12B0 002:158 JLINK_WriteReg(R15, 0x200000F4)  returns 0x00 (0000ms, 1609ms total)
T12B0 002:158 JLINK_WriteReg(XPSR, 0x01000000)  returns 0x00 (0000ms, 1609ms total)
T12B0 002:158 JLINK_WriteReg(MSP, 0x20000800)  returns 0x00 (0001ms, 1609ms total)
T12B0 002:159 JLINK_WriteReg(PSP, 0x20000800)  returns 0x00 (0000ms, 1610ms total)
T12B0 002:159 JLINK_WriteReg(CFBP, 0x00000000)  returns 0x00 (0000ms, 1610ms total)
T12B0 002:159 JLINK_SetBPEx(Addr = 0x20000000, Type = 0xFFFFFFF2)  returns 0x0000000B (0000ms, 1610ms total)
T12B0 002:159 JLINK_Go() -- CPU_WriteMem(4 bytes @ 0xE0002008) -- CPU_WriteMem(4 bytes @ 0xE000200C) -- CPU_WriteMem(4 bytes @ 0xE0002010) -- CPU_WriteMem(4 bytes @ 0xE0002014) -- CPU_WriteMem(4 bytes @ 0xE0002018) -- CPU_WriteMem(4 bytes @ 0xE000201C) (0011ms, 1610ms total)
T12B0 002:170 JLINK_IsHalted()  returns FALSE (0002ms, 1621ms total)
T12B0 002:222 JLINK_IsHalted() -- CPU_ReadMem(2 bytes @ 0x20000000)  returns TRUE (0011ms, 1621ms total)
T12B0 002:234 JLINK_ReadReg(R15)  returns 0x20000000 (0000ms, 1621ms total)
T12B0 002:234 JLINK_ClrBPEx(BPHandle = 0x0000000B)  returns 0x00 (0000ms, 1621ms total)
T12B0 002:234 JLINK_ReadReg(R0)  returns 0x00000000 (0000ms, 1621ms total)
T12B0 002:235 JLINK_WriteMem(0x20000164, 0x0400 Bytes, ...) -- Data:  92 4D A8 42 02 D0 92 4D A8 42 0D D1 22 F0 08 05 ... -- CPU_WriteMem(1024 bytes @ 0x20000164)  returns 0x400 (0006ms, 1621ms total)
T12B0 002:241 JLINK_WriteReg(R0, 0x08001C00)  returns 0x00 (0000ms, 1627ms total)
T12B0 002:241 JLINK_WriteReg(R1, 0x00000400)  returns 0x00 (0000ms, 1627ms total)
T12B0 002:241 JLINK_WriteReg(R2, 0x20000164)  returns 0x00 (0000ms, 1627ms total)
T12B0 002:241 JLINK_WriteReg(R3, 0x00000000)  returns 0x00 (0000ms, 1627ms total)
T12B0 002:241 JLINK_WriteReg(R4, 0x00000000)  returns 0x00 (0000ms, 1627ms total)
T12B0 002:241 JLINK_WriteReg(R5, 0x00000000)  returns 0x00 (0001ms, 1627ms total)
T12B0 002:242 JLINK_WriteReg(R6, 0x00000000)  returns 0x00 (0000ms, 1628ms total)
T12B0 002:242 JLINK_WriteReg(R7, 0x00000000)  returns 0x00 (0000ms, 1628ms total)
T12B0 002:242 JLINK_WriteReg(R8, 0x00000000)  returns 0x00 (0000ms, 1628ms total)
T12B0 002:242 JLINK_WriteReg(R9, 0x20000160)  returns 0x00 (0000ms, 1628ms total)
T12B0 002:242 JLINK_WriteReg(R10, 0x00000000)  returns 0x00 (0000ms, 1628ms total)
T12B0 002:242 JLINK_WriteReg(R11, 0x00000000)  returns 0x00 (0000ms, 1628ms total)
T12B0 002:242 JLINK_WriteReg(R12, 0x00000000)  returns 0x00 (0000ms, 1628ms total)
T12B0 002:242 JLINK_WriteReg(R13, 0x20000800)  returns 0x00 (0000ms, 1628ms total)
T12B0 002:242 JLINK_WriteReg(R14, 0x20000001)  returns 0x00 (0000ms, 1628ms total)
T12B0 002:242 JLINK_WriteReg(R15, 0x200000F4)  returns 0x00 (0000ms, 1628ms total)
T12B0 002:242 JLINK_WriteReg(XPSR, 0x01000000)  returns 0x00 (0000ms, 1628ms total)
T12B0 002:242 JLINK_WriteReg(MSP, 0x20000800)  returns 0x00 (0000ms, 1628ms total)
T12B0 002:242 JLINK_WriteReg(PSP, 0x20000800)  returns 0x00 (0000ms, 1628ms total)
T12B0 002:242 JLINK_WriteReg(CFBP, 0x00000000)  returns 0x00 (0000ms, 1628ms total)
T12B0 002:242 JLINK_SetBPEx(Addr = 0x20000000, Type = 0xFFFFFFF2)  returns 0x0000000C (0000ms, 1628ms total)
T12B0 002:242 JLINK_Go() -- CPU_WriteMem(4 bytes @ 0xE0002008) -- CPU_WriteMem(4 bytes @ 0xE000200C) -- CPU_WriteMem(4 bytes @ 0xE0002010) -- CPU_WriteMem(4 bytes @ 0xE0002014) -- CPU_WriteMem(4 bytes @ 0xE0002018) -- CPU_WriteMem(4 bytes @ 0xE000201C) (0008ms, 1628ms total)
T12B0 002:251 JLINK_IsHalted()  returns FALSE (0001ms, 1636ms total)
T12B0 002:302 JLINK_IsHalted() -- CPU_ReadMem(2 bytes @ 0x20000000)  returns TRUE (0004ms, 1636ms total)
T12B0 002:306 JLINK_ReadReg(R15)  returns 0x20000000 (0000ms, 1636ms total)
T12B0 002:306 JLINK_ClrBPEx(BPHandle = 0x0000000C)  returns 0x00 (0000ms, 1636ms total)
T12B0 002:306 JLINK_ReadReg(R0)  returns 0x00000000 (0001ms, 1636ms total)
T12B0 002:307 JLINK_WriteMem(0x20000164, 0x0400 Bytes, ...) -- Data:  E1 88 38 46 FF F7 FE FE 23 89 32 46 29 46 38 46 ... -- CPU_WriteMem(1024 bytes @ 0x20000164)  returns 0x400 (0007ms, 1637ms total)
T12B0 002:314 JLINK_WriteReg(R0, 0x08002000)  returns 0x00 (0000ms, 1644ms total)
T12B0 002:314 JLINK_WriteReg(R1, 0x00000400)  returns 0x00 (0000ms, 1644ms total)
T12B0 002:314 JLINK_WriteReg(R2, 0x20000164)  returns 0x00 (0000ms, 1644ms total)
T12B0 002:314 JLINK_WriteReg(R3, 0x00000000)  returns 0x00 (0000ms, 1644ms total)
T12B0 002:314 JLINK_WriteReg(R4, 0x00000000)  returns 0x00 (0000ms, 1644ms total)
T12B0 002:315 JLINK_WriteReg(R5, 0x00000000)  returns 0x00 (0000ms, 1644ms total)
T12B0 002:315 JLINK_WriteReg(R6, 0x00000000)  returns 0x00 (0000ms, 1644ms total)
T12B0 002:315 JLINK_WriteReg(R7, 0x00000000)  returns 0x00 (0000ms, 1644ms total)
T12B0 002:315 JLINK_WriteReg(R8, 0x00000000)  returns 0x00 (0000ms, 1644ms total)
T12B0 002:315 JLINK_WriteReg(R9, 0x20000160)  returns 0x00 (0000ms, 1644ms total)
T12B0 002:315 JLINK_WriteReg(R10, 0x00000000)  returns 0x00 (0000ms, 1644ms total)
T12B0 002:315 JLINK_WriteReg(R11, 0x00000000)  returns 0x00 (0000ms, 1644ms total)
T12B0 002:315 JLINK_WriteReg(R12, 0x00000000)  returns 0x00 (0000ms, 1644ms total)
T12B0 002:315 JLINK_WriteReg(R13, 0x20000800)  returns 0x00 (0000ms, 1644ms total)
T12B0 002:315 JLINK_WriteReg(R14, 0x20000001)  returns 0x00 (0000ms, 1644ms total)
T12B0 002:315 JLINK_WriteReg(R15, 0x200000F4)  returns 0x00 (0000ms, 1644ms total)
T12B0 002:315 JLINK_WriteReg(XPSR, 0x01000000)  returns 0x00 (0000ms, 1644ms total)
T12B0 002:315 JLINK_WriteReg(MSP, 0x20000800)  returns 0x00 (0000ms, 1644ms total)
T12B0 002:315 JLINK_WriteReg(PSP, 0x20000800)  returns 0x00 (0000ms, 1644ms total)
T12B0 002:315 JLINK_WriteReg(CFBP, 0x00000000)  returns 0x00 (0000ms, 1644ms total)
T12B0 002:315 JLINK_SetBPEx(Addr = 0x20000000, Type = 0xFFFFFFF2)  returns 0x0000000D (0000ms, 1644ms total)
T12B0 002:315 JLINK_Go() -- CPU_WriteMem(4 bytes @ 0xE0002008) -- CPU_WriteMem(4 bytes @ 0xE000200C) -- CPU_WriteMem(4 bytes @ 0xE0002010) -- CPU_WriteMem(4 bytes @ 0xE0002014) -- CPU_WriteMem(4 bytes @ 0xE0002018) -- CPU_WriteMem(4 bytes @ 0xE000201C) (0009ms, 1644ms total)
T12B0 002:324 JLINK_IsHalted()  returns FALSE (0001ms, 1653ms total)
T12B0 002:375 JLINK_IsHalted() -- CPU_ReadMem(2 bytes @ 0x20000000)  returns TRUE (0006ms, 1653ms total)
T12B0 002:381 JLINK_ReadReg(R15)  returns 0x20000000 (0000ms, 1653ms total)
T12B0 002:381 JLINK_ClrBPEx(BPHandle = 0x0000000D)  returns 0x00 (0000ms, 1653ms total)
T12B0 002:381 JLINK_ReadReg(R0)  returns 0x00000000 (0000ms, 1653ms total)
T12B0 002:383 JLINK_WriteMem(0x20000164, 0x0400 Bytes, ...) -- Data:  07 E5 02 89 22 F0 07 02 02 81 02 89 0A 43 02 81 ... -- CPU_WriteMem(1024 bytes @ 0x20000164)  returns 0x400 (0007ms, 1653ms total)
T12B0 002:390 JLINK_WriteReg(R0, 0x08002400)  returns 0x00 (0000ms, 1660ms total)
T12B0 002:390 JLINK_WriteReg(R1, 0x00000400)  returns 0x00 (0000ms, 1660ms total)
T12B0 002:390 JLINK_WriteReg(R2, 0x20000164)  returns 0x00 (0000ms, 1660ms total)
T12B0 002:390 JLINK_WriteReg(R3, 0x00000000)  returns 0x00 (0000ms, 1660ms total)
T12B0 002:390 JLINK_WriteReg(R4, 0x00000000)  returns 0x00 (0000ms, 1660ms total)
T12B0 002:390 JLINK_WriteReg(R5, 0x00000000)  returns 0x00 (0000ms, 1660ms total)
T12B0 002:390 JLINK_WriteReg(R6, 0x00000000)  returns 0x00 (0000ms, 1660ms total)
T12B0 002:390 JLINK_WriteReg(R7, 0x00000000)  returns 0x00 (0000ms, 1660ms total)
T12B0 002:390 JLINK_WriteReg(R8, 0x00000000)  returns 0x00 (0000ms, 1660ms total)
T12B0 002:390 JLINK_WriteReg(R9, 0x20000160)  returns 0x00 (0000ms, 1660ms total)
T12B0 002:390 JLINK_WriteReg(R10, 0x00000000)  returns 0x00 (0000ms, 1660ms total)
T12B0 002:390 JLINK_WriteReg(R11, 0x00000000)  returns 0x00 (0000ms, 1660ms total)
T12B0 002:390 JLINK_WriteReg(R12, 0x00000000)  returns 0x00 (0000ms, 1660ms total)
T12B0 002:390 JLINK_WriteReg(R13, 0x20000800)  returns 0x00 (0000ms, 1660ms total)
T12B0 002:390 JLINK_WriteReg(R14, 0x20000001)  returns 0x00 (0000ms, 1660ms total)
T12B0 002:390 JLINK_WriteReg(R15, 0x200000F4)  returns 0x00 (0000ms, 1660ms total)
T12B0 002:390 JLINK_WriteReg(XPSR, 0x01000000)  returns 0x00 (0000ms, 1660ms total)
T12B0 002:390 JLINK_WriteReg(MSP, 0x20000800)  returns 0x00 (0000ms, 1660ms total)
T12B0 002:390 JLINK_WriteReg(PSP, 0x20000800)  returns 0x00 (0000ms, 1660ms total)
T12B0 002:390 JLINK_WriteReg(CFBP, 0x00000000)  returns 0x00 (0000ms, 1660ms total)
T12B0 002:390 JLINK_SetBPEx(Addr = 0x20000000, Type = 0xFFFFFFF2)  returns 0x0000000E (0000ms, 1660ms total)
T12B0 002:390 JLINK_Go() -- CPU_WriteMem(4 bytes @ 0xE0002008) -- CPU_WriteMem(4 bytes @ 0xE000200C) -- CPU_WriteMem(4 bytes @ 0xE0002010) -- CPU_WriteMem(4 bytes @ 0xE0002014) -- CPU_WriteMem(4 bytes @ 0xE0002018) -- CPU_WriteMem(4 bytes @ 0xE000201C) (0007ms, 1660ms total)
T12B0 002:397 JLINK_IsHalted()  returns FALSE (0001ms, 1667ms total)
T12B0 002:448 JLINK_IsHalted() -- CPU_ReadMem(2 bytes @ 0x20000000)  returns TRUE (0005ms, 1667ms total)
T12B0 002:453 JLINK_ReadReg(R15)  returns 0x20000000 (0000ms, 1667ms total)
T12B0 002:453 JLINK_ClrBPEx(BPHandle = 0x0000000E)  returns 0x00 (0000ms, 1667ms total)
T12B0 002:453 JLINK_ReadReg(R0)  returns 0x00000000 (0000ms, 1667ms total)
T12B0 002:454 JLINK_WriteMem(0x20000164, 0x0400 Bytes, ...) -- Data:  80 07 00 20 80 07 00 20 70 47 70 47 70 47 75 46 ... -- CPU_WriteMem(1024 bytes @ 0x20000164)  returns 0x400 (0006ms, 1667ms total)
T12B0 002:460 JLINK_WriteReg(R0, 0x08002800)  returns 0x00 (0000ms, 1673ms total)
T12B0 002:460 JLINK_WriteReg(R1, 0x00000400)  returns 0x00 (0000ms, 1673ms total)
T12B0 002:460 JLINK_WriteReg(R2, 0x20000164)  returns 0x00 (0001ms, 1673ms total)
T12B0 002:461 JLINK_WriteReg(R3, 0x00000000)  returns 0x00 (0000ms, 1674ms total)
T12B0 002:461 JLINK_WriteReg(R4, 0x00000000)  returns 0x00 (0000ms, 1674ms total)
T12B0 002:461 JLINK_WriteReg(R5, 0x00000000)  returns 0x00 (0000ms, 1674ms total)
T12B0 002:461 JLINK_WriteReg(R6, 0x00000000)  returns 0x00 (0000ms, 1674ms total)
T12B0 002:461 JLINK_WriteReg(R7, 0x00000000)  returns 0x00 (0000ms, 1674ms total)
T12B0 002:461 JLINK_WriteReg(R8, 0x00000000)  returns 0x00 (0000ms, 1674ms total)
T12B0 002:461 JLINK_WriteReg(R9, 0x20000160)  returns 0x00 (0000ms, 1674ms total)
T12B0 002:461 JLINK_WriteReg(R10, 0x00000000)  returns 0x00 (0000ms, 1674ms total)
T12B0 002:461 JLINK_WriteReg(R11, 0x00000000)  returns 0x00 (0000ms, 1674ms total)
T12B0 002:461 JLINK_WriteReg(R12, 0x00000000)  returns 0x00 (0000ms, 1674ms total)
T12B0 002:461 JLINK_WriteReg(R13, 0x20000800)  returns 0x00 (0000ms, 1674ms total)
T12B0 002:461 JLINK_WriteReg(R14, 0x20000001)  returns 0x00 (0000ms, 1674ms total)
T12B0 002:461 JLINK_WriteReg(R15, 0x200000F4)  returns 0x00 (0000ms, 1674ms total)
T12B0 002:461 JLINK_WriteReg(XPSR, 0x01000000)  returns 0x00 (0000ms, 1674ms total)
T12B0 002:461 JLINK_WriteReg(MSP, 0x20000800)  returns 0x00 (0000ms, 1674ms total)
T12B0 002:461 JLINK_WriteReg(PSP, 0x20000800)  returns 0x00 (0000ms, 1674ms total)
T12B0 002:461 JLINK_WriteReg(CFBP, 0x00000000)  returns 0x00 (0000ms, 1674ms total)
T12B0 002:461 JLINK_SetBPEx(Addr = 0x20000000, Type = 0xFFFFFFF2)  returns 0x0000000F (0000ms, 1674ms total)
T12B0 002:462 JLINK_Go() -- CPU_WriteMem(4 bytes @ 0xE0002008) -- CPU_WriteMem(4 bytes @ 0xE000200C) -- CPU_WriteMem(4 bytes @ 0xE0002010) -- CPU_WriteMem(4 bytes @ 0xE0002014) -- CPU_WriteMem(4 bytes @ 0xE0002018) -- CPU_WriteMem(4 bytes @ 0xE000201C) (0007ms, 1675ms total)
T12B0 002:469 JLINK_IsHalted()  returns FALSE (0001ms, 1682ms total)
T12B0 002:520 JLINK_IsHalted() -- CPU_ReadMem(2 bytes @ 0x20000000)  returns TRUE (0004ms, 1682ms total)
T12B0 002:524 JLINK_ReadReg(R15)  returns 0x20000000 (0001ms, 1682ms total)
T12B0 002:525 JLINK_ClrBPEx(BPHandle = 0x0000000F)  returns 0x00 (0000ms, 1683ms total)
T12B0 002:525 JLINK_ReadReg(R0)  returns 0x00000000 (0000ms, 1683ms total)
T12B0 002:525 JLINK_WriteMem(0x20000164, 0x0400 Bytes, ...) -- Data:  4F F0 00 06 4F F0 00 08 AD E7 F0 BC 4F F0 00 00 ... -- CPU_WriteMem(1024 bytes @ 0x20000164)  returns 0x400 (0007ms, 1683ms total)
T12B0 002:532 JLINK_WriteReg(R0, 0x08002C00)  returns 0x00 (0000ms, 1690ms total)
T12B0 002:532 JLINK_WriteReg(R1, 0x00000400)  returns 0x00 (0000ms, 1690ms total)
T12B0 002:532 JLINK_WriteReg(R2, 0x20000164)  returns 0x00 (0000ms, 1690ms total)
T12B0 002:532 JLINK_WriteReg(R3, 0x00000000)  returns 0x00 (0000ms, 1690ms total)
T12B0 002:532 JLINK_WriteReg(R4, 0x00000000)  returns 0x00 (0000ms, 1690ms total)
T12B0 002:532 JLINK_WriteReg(R5, 0x00000000)  returns 0x00 (0000ms, 1690ms total)
T12B0 002:532 JLINK_WriteReg(R6, 0x00000000)  returns 0x00 (0000ms, 1690ms total)
T12B0 002:532 JLINK_WriteReg(R7, 0x00000000)  returns 0x00 (0000ms, 1690ms total)
T12B0 002:532 JLINK_WriteReg(R8, 0x00000000)  returns 0x00 (0000ms, 1690ms total)
T12B0 002:532 JLINK_WriteReg(R9, 0x20000160)  returns 0x00 (0000ms, 1690ms total)
T12B0 002:532 JLINK_WriteReg(R10, 0x00000000)  returns 0x00 (0000ms, 1690ms total)
T12B0 002:532 JLINK_WriteReg(R11, 0x00000000)  returns 0x00 (0000ms, 1690ms total)
T12B0 002:532 JLINK_WriteReg(R12, 0x00000000)  returns 0x00 (0000ms, 1690ms total)
T12B0 002:532 JLINK_WriteReg(R13, 0x20000800)  returns 0x00 (0000ms, 1690ms total)
T12B0 002:532 JLINK_WriteReg(R14, 0x20000001)  returns 0x00 (0001ms, 1690ms total)
T12B0 002:533 JLINK_WriteReg(R15, 0x200000F4)  returns 0x00 (0000ms, 1691ms total)
T12B0 002:533 JLINK_WriteReg(XPSR, 0x01000000)  returns 0x00 (0000ms, 1691ms total)
T12B0 002:533 JLINK_WriteReg(MSP, 0x20000800)  returns 0x00 (0000ms, 1691ms total)
T12B0 002:533 JLINK_WriteReg(PSP, 0x20000800)  returns 0x00 (0000ms, 1691ms total)
T12B0 002:533 JLINK_WriteReg(CFBP, 0x00000000)  returns 0x00 (0000ms, 1691ms total)
T12B0 002:533 JLINK_SetBPEx(Addr = 0x20000000, Type = 0xFFFFFFF2)  returns 0x00000010 (0000ms, 1691ms total)
T12B0 002:533 JLINK_Go() -- CPU_WriteMem(4 bytes @ 0xE0002008) -- CPU_WriteMem(4 bytes @ 0xE000200C) -- CPU_WriteMem(4 bytes @ 0xE0002010) -- CPU_WriteMem(4 bytes @ 0xE0002014) -- CPU_WriteMem(4 bytes @ 0xE0002018) -- CPU_WriteMem(4 bytes @ 0xE000201C) (0009ms, 1691ms total)
T12B0 002:542 JLINK_IsHalted()  returns FALSE (0001ms, 1700ms total)
T12B0 002:593 JLINK_IsHalted() -- CPU_ReadMem(2 bytes @ 0x20000000)  returns TRUE (0007ms, 1700ms total)
T12B0 002:600 JLINK_ReadReg(R15)  returns 0x20000000 (0000ms, 1700ms total)
